"Freq [GHz]","dB(S(2,1)) []","cang_deg_val(S(2,1)) []"
3.34,-0.210212906498797,-65.2265376127602
3.34016666666667,-0.210159306526254,-65.2331994938067
3.34033333333333,-0.210105088568466,-65.2398973605922
3.3405,-0.210050245296199,-65.2466317717314
3.34066666666667,-0.209994769268415,-65.2534032977792
3.34083333333333,-0.209938652942323,-65.2602125210386
3.341,-0.209881888663625,-65.2670600359974
3.34116666666667,-0.20982446867044,-65.2739464498677
3.34133333333333,-0.209766385088254,-65.2808723825728
3.3415,-0.209707629928823,-65.2878384674116
3.34166666666667,-0.209648195090035,-65.2948453512916
3.34183333333333,-0.209588072354754,-65.3018936948914
3.342,-0.209527253387535,-65.3089841733574
3.34216666666667,-0.209465729733766,-65.3161174765444
3.34233333333333,-0.209403492815997,-65.3232943095257
3.3425,-0.209340533939791,-65.330515392705
3.34266666666667,-0.209276844280857,-65.3377814626478
3.34283333333333,-0.209212414894465,-65.3450932722429
3.343,-0.209147236705113,-65.3524515913411
3.34316666666667,-0.209081300512378,-65.3598572070606
3.34333333333333,-0.209014596984656,-65.3673109244013
3.3435,-0.208947116659901,-65.374813566686
3.34366666666667,-0.208878849940592,-65.3823659762283
3.34383333333333,-0.208809787099172,-65.3899690146401
3.344,-0.208739918271272,-65.3976235635696
3.34416666666667,-0.208669233454795,-65.4053305252495
3.34433333333333,-0.208597722510785,-65.4130908230663
3.3445,-0.208525375161806,-65.4209054021652
3.34466666666667,-0.208452180989201,-65.428775230204
3.34483333333333,-0.208378129431391,-65.4367012980119
3.345,-0.208303209791458,-65.444684619876
3.34516666666667,-0.208227411219316,-65.452726235115
3.34533333333333,-0.208150722725281,-65.4608272081086
3.3455,-0.208073133182058,-65.468988628894
3.34566666666667,-0.207994631303234,-65.4772116149979
3.34583333333333,-0.207915205667708,-65.4854973112235
3.346,-0.207834844702582,-65.4938468909559
3.34616666666667,-0.207753536689626,-65.5022615570942
3.34633333333333,-0.207671269765048,-65.5107425428524
3.3465,-0.207588031918398,-65.5192911126906
3.34666666666667,-0.207503810992908,-65.5279085634382
3.34683333333333,-0.207418594684744,-65.5365962253587
3.347,-0.207332370548568,-65.5453554629418
3.34716666666667,-0.207245125989254,-65.554187676545
3.34733333333333,-0.207156848276309,-65.5630943028501
3.3475,-0.207067524529995,-65.5720768168774
3.34766666666667,-0.206977141739518,-65.5811367324455
3.34783333333333,-0.20688568675106,-65.5902756040714
3.348,-0.206793146279116,-65.5994950280501
3.34816666666667,-0.206699506903366,-65.6087966440149
3.34833333333333,-0.206604755073828,-65.6181821365219
3.3485,-0.206508877122335,-65.6276532358866
3.34866666666667,-0.206411859254155,-65.6372117208076
3.34883333333333,-0.206313687562133,-65.6468594192363
3.349,-0.206214348028026,-65.6565982104431
3.34916666666667,-0.206113826528351,-65.6664300269171
3.34933333333333,-0.206012108842681,-65.6763568560057
3.3495,-0.205909180660423,-65.6863807420393
3.34966666666667,-0.205805027591514,-65.6965037882332
3.34983333333333,-0.205699635169638,-65.7067281590786
3.35,-0.205592988868943,-65.7170560823135
3.35016666666667,-0.205485074111839,-65.7274898513564
3.35033333333333,-0.205375876277244,-65.7380318279221
3.3505,-0.205265380725432,-65.7486844441977
3.35066666666667,-0.205153572798769,-65.7594502057558
3.35083333333333,-0.205040437848612,-65.770331694335
3.351,-0.204925961247738,-65.7813315705292
3.35116666666667,-0.20481012840579,-65.7924525773951
3.35133333333333,-0.204692924802203,-65.8036975427047
3.3515,-0.204574335994682,-65.8150693831922
3.35166666666667,-0.204454347655957,-65.8265711074631
3.35183333333333,-0.20433294559043,-65.838205819931
3.352,-0.204210115771656,-65.8499767245833
3.35216666666667,-0.204085844372964,-65.8618871287698
3.35233333333333,-0.203960117796115,-65.873940447928
3.3525,-0.203832922716706,-65.8861402094653
3.35266666666667,-0.203704246122332,-65.8984900576836
3.35283333333333,-0.203574075357173,-65.9109937585004
3.353,-0.203442398167374,-65.9236552049619
3.35316666666667,-0.203309202761036,-65.9364784218997
3.35333333333333,-0.20317447786083,-65.9494675721396
3.3535,-0.203038212765011,-65.9626269624033
3.35366666666667,-0.202900397418211,-65.9759610492903
3.35383333333333,-0.202761022483479,-65.9894744460506
3.354,-0.202620079422852,-66.0031719293229
3.35416666666667,-0.202477560582721,-66.0170584467481
3.35433333333333,-0.202333459287136,-66.0311391244379
3.3545,-0.202187769943138,-66.0454192749741
3.35466666666667,-0.202040488148301,-66.0599044063201
3.35483333333333,-0.201891610813038,-66.0746002304472
3.355,-0.201741136292923,-66.0895126730889
3.35516666666667,-0.201589064528889,-66.1046478837149
3.35533333333333,-0.201435397202149,-66.1200122462976
3.3555,-0.20128013790532,-66.1356123903438
3.35566666666667,-0.201123292322607,-66.1514552030335
3.35583333333333,-0.200964868425594,-66.1675478419472
3.356,-0.200804876707366,-66.1838977473595
3.35616666666667,-0.200643330397227,-66.2005126579454
3.35633333333333,-0.200480245725436,-66.2174006250013
3.3565,-0.200315642210576,-66.2345700280332
3.35666666666667,-0.200149542962398,-66.252029591864
3.35683333333333,-0.199981975006342,-66.2697884051987
3.357,-0.199812969661126,-66.2878559386917
3.35716666666667,-0.199642562924845,-66.306242065844
3.35733333333333,-0.199470795914879,-66.3249570843385
3.3575,-0.199297715340493,-66.344011739072
3.35766666666667,-0.199123374021215,-66.3634172466399
3.35783333333333,-0.198947831453245,-66.383185321303
3.358,-0.198771154428967,-66.4033282030436
3.35816666666667,-0.19859341772527,-66.423858686679
3.35833333333333,-0.198414704833914,-66.4447901545035
3.3585,-0.198235108794378,-66.466136609391
3.35866666666667,-0.19805473307484,-66.4879127120984
3.35883333333333,-0.197873692580611,-66.5101338180167
3.359,-0.197692114708772,-66.5328160221112
3.35916666666667,-0.197510140562858,-66.5559762002986
3.35933333333333,-0.197327926251624,-66.5796320594638
3.3595,-0.19714564433942,-66.6038021880715
3.35966666666667,-0.196963485437049,-66.6285061116451
3.35983333333333,-0.196781659958712,-66.6537643527919
3.36,-0.196600400069442,-66.6795984944262
3.36016666666667,-0.196419961827641,-66.7060312496674
3.36033333333333,-0.196240627568041,-66.7330865358469
3.3605,-0.196062708527514,-66.760789555568
3.36066666666667,-0.195886547775213,-66.7891668829635
3.36083333333333,-0.195712523445891,-66.818246558671
3.361,-0.1955410523528,-66.8480581910425
3.36116666666667,-0.195372593992041,-66.8786330672463
3.36133333333333,-0.195207655009896,-66.9100042729133
3.3615,-0.195046794185423,-66.9422068230045
3.36166666666667,-0.194890628003507,-66.9752778023017
3.36183333333333,-0.19473983686295,-67.0092565213548
3.362,-0.194595172054496,-67.044184683532
3.36216666666667,-0.194457463563909,-67.080106569972
3.36233333333333,-0.194327628852654,-67.1170692386376
3.3625,-0.194206682710575,-67.1551227453834
3.36266666666667,-0.194095748367794,-67.1943203843272
3.36283333333333,-0.193996070022877,-67.2347189516755
3.363,-0.193909026998656,-67.2763790358472
3.36316666666667,-0.193836149760059,-67.3193653361121
3.36333333333333,-0.193779138073826,-67.3637470163674
3.3635,-0.193739881637704,-67.4095980903123
3.36366666666667,-0.193720483542443,-67.4569978515188
3.36383333333333,-0.193723287033238,-67.5060313487098
3.364,-0.19375090606721,-67.5567899115614
3.36416666666667,-0.193806260302769,-67.6093717331873
3.36433333333333,-0.193892615231598,-67.663882524685
3.3645,-0.194013628322801,-67.7204362326062
3.36466666666667,-0.194173402198771,-67.7791558552634
3.36483333333333,-0.194376546058611,-67.8401743411279
3.365,-0.194628246820638,-67.9036356056989
3.36516666666667,-0.194934351711521,-67.9696956680513
3.36533333333333,-0.195301464419793,-68.0385239310446
3.3655,-0.195737057366207,-68.110304626305
3.36566666666667,-0.196249603145803,-68.1852384438709
3.36583333333333,-0.196848728909494,-68.2635443789649
3.366,-0.197545398272368,-68.3454618300564
3.36616666666667,-0.198352126304127,-68.4312529790084
3.36633333333333,-0.19928323459948,-68.5212055112353
3.3665,-0.200355154917722,-68.6156357232241
3.36666666666667,-0.201586792049897,-68.7148920829599
3.36683333333333,-0.202999959028142,-68.8193593120472
3.367,-0.204619901562032,-68.9294630986231
3.36716666666667,-0.206475932362554,-69.0456755259114
3.36733333333333,-0.208602202125927,-69.1685213615555
3.3675,-0.2110386407706,-69.298585344043
3.36766666666667,-0.213832112657873,-69.4365206679563
3.36783333333333,-0.217037841307396,-69.5830588613297
3.368,-0.220721176135008,-69.7390213134147
3.36816666666667,-0.224959796571847,-69.9053327829859
3.36833333333333,-0.229846477034439,-70.083037193917
3.3685,-0.235492578499153,-70.2733161693675
3.36866666666667,-0.242032485842385,-70.4775107468269
3.36883333333333,-0.249629286480423,-70.6971468018967
3.369,-0.258482089838243,-70.9339647202125
3.36916666666667,-0.268835532846057,-71.1899538324703
3.36933333333333,-0.280992220303074,-71.467391979403
3.3695,-0.295329138265816,-71.7688902481856
3.36966666666667,-0.312319490521769,-72.0974422193442
3.36983333333333,-0.332561988744804,-72.4564755138517
3.37,-0.356820477251239,-72.8499009410765
3.37016666666667,-0.38607796646648,-73.2821493390488
3.37033333333333,-0.421610861848217,-73.7581770982101
3.3705,-0.465091571452616,-74.283404672774
3.37066666666667,-0.518730874623881,-74.8635215229599
3.37083333333333,-0.585475448404627,-75.5040353711646
3.371,-0.669279926664432,-76.2093415328492
3.37116666666667,-0.775474109766081,-76.980904390724
3.37133333333333,-0.911236115477977,-77.8138165292385
3.3715,-1.08613957202062,-78.6904469698746
3.37166666666667,-1.31261378791506,-79.5690404809536
3.37183333333333,-1.605820260777,-80.36415373117
3.372,-1.98168220006323,-80.915901029076
3.37216666666667,-2.45036551082054,-80.9505352900113
3.37233333333333,-3.0009511922779,-80.0573938988363
3.3725,-3.57568504187092,-77.7615098019671
3.37266666666667,-4.05076051742531,-73.8178070467992
3.37283333333333,-4.2735921161518,-68.6653087919862
3.373,-4.17365321943263,-63.4574397965339
3.37316666666667,-3.82442199062831,-59.2971942413739
3.37333333333333,-3.36592393167083,-56.5743140852848
3.3735,-2.90653060128293,-55.0902014635035
3.37366666666667,-2.49837133575058,-54.4654150232463
3.37383333333333,-2.15556844018214,-54.3694914903103
3.374,-1.87462633859725,-54.5739650163912
3.37416666666667,-1.64621641364134,-54.9361813546434
3.37433333333333,-1.46038950806884,-55.3716036763415
3.3745,-1.30842124572829,-55.8317783896584
3.37466666666667,-1.18321921577153,-56.2897905283696
3.37483333333333,-1.07920358693412,-56.7313363469813
3.375,-0.992042085744581,-57.1494093058556
3.37516666666667,-0.918381870032526,-57.5411755525045
3.37533333333333,-0.855622492671474,-57.9061445906422
3.3755,-0.801736757416109,-58.2450999137238
3.37566666666667,-0.755133762742435,-58.5594755454528
3.37583333333333,-0.714555651165542,-58.8509948718289
3.376,-0.679000125056851,-59.1214643118059
3.37616666666667,-0.647662263110373,-59.3726586015288
3.37633333333333,-0.619890675348189,-59.6062602267467
3.3765,-0.595154283730263,-59.8238307269882
3.37666666666667,-0.573016996658349,-60.0268004942152
3.37683333333333,-0.553118266679367,-60.2164690816387
3.377,-0.535158060599299,-60.394011199339
3.37716666666667,-0.51888515635805,-60.5604855446824
3.37733333333333,-0.504087966775141,-60.7168447681318
3.3775,-0.490587294332791,-60.8639456036646
3.37766666666667,-0.478230572626141,-61.0025586178417
3.37783333333333,-0.466887259202355,-61.1333773053339
3.378,-0.456445127467842,-61.2570263967032
3.37816666666667,-0.446807262900259,-61.3740693666541
3.37833333333333,-0.437889617571872,-61.4850151410635
3.3785,-0.429619006641637,-61.5903240736694
3.37866666666667,-0.421931459291824,-61.6904132413975
3.37883333333333,-0.414770854011662,-61.7856611312461
3.379,-0.408087784119204,-61.8764117796482
3.37916666666667,-0.401838610257257,-61.9629784268471
3.37933333333333,-0.395984664931628,-62.0456467522182
3.3795,-0.390491582889844,-62.1246777251418
3.37966666666667,-0.385328734433882,-62.2003101299186
3.37983333333333,-0.380468744313802,-62.2727627988918
3.38,-0.375887081247903,-62.3422365969417
3.38016666666667,-0.371561707210048,-62.4089161770964
3.38033333333333,-0.367472776134815,-62.4729715442799
3.3805,-0.363602374715129,-62.5345594429016
3.38066666666667,-0.359934297879305,-62.5938246027586
3.38083333333333,-0.35645385503666,-62.6509008389108
3.381,-0.353147700988349,-62.7059120460587
3.38116666666667,-0.350003688912698,-62.7589730831914
3.38133333333333,-0.347010741844025,-62.8101905680027
3.3815,-0.344158739988084,-62.8596635915186
3.38166666666667,-0.341438421655236,-62.9074843623334
3.38183333333333,-0.338841296365564,-62.9537387818043
3.382,-0.336359567645343,-62.9985069713225
3.38216666666667,-0.333986065302558,-63.0418637391165
3.38233333333333,-0.331714184863362,-63.0838790118752
3.3825,-0.329537834075056,-63.1246182202378
3.38266666666667,-0.32745138520089,-63.1641426503504
3.38283333333333,-0.325449632453475,-63.2025097633261
3.383,-0.32352775392562,-63.2397734865748
3.38316666666667,-0.321681277549171,-63.2759844783529
3.38333333333333,-0.319906050626286,-63.3111903677662
3.3835,-0.31819821221105,-63.345435978818
3.38366666666667,-0.316554168518959,-63.3787635298627
3.38383333333333,-0.314970570628723,-63.411212819047
3.384,-0.313444294315009,-63.4428213946117
3.38416666666667,-0.311972421935835,-63.4736247090436
3.38433333333333,-0.310552225830343,-63.5036562641562
3.3845,-0.309181153514894,-63.5329477399035
3.38466666666667,-0.307856813973418,-63.5615291181623
3.38483333333333,-0.306576965383695,-63.589428792397
3.385,-0.30533950381658,-63.6166736719551
3.38516666666667,-0.304142453008131,-63.6432892764169
3.38533333333333,-0.302983954970139,-63.6692998239705
3.3855,-0.301862261414364,-63.6947283127894
3.38566666666667,-0.300775725931651,-63.7195965961553
3.38583333333333,-0.299722796774698,-63.7439254528434
3.386,-0.298702010263017,-63.7677346520519
3.38616666666667,-0.297711984736689,-63.7910430131983
3.38633333333333,-0.296751414996848,-63.8138684619066
3.3865,-0.295819067131679,-63.8362280828461
3.38666666666667,-0.294913773790916,-63.8581381683477
3.38683333333333,-0.294034429910274,-63.8796142617872
3.387,-0.293179988550216,-63.9006712026018
3.38716666666667,-0.292349457278228,-63.9213231634385
3.38733333333333,-0.291541894692003,-63.9415836877373
3.3875,-0.290756407191238,-63.9614657247259
3.38766666666667,-0.289992146108856,-63.9809816601182
3.38783333333333,-0.289248304878165,-64.0001433477278
3.388,-0.288524116539553,-64.0189621368588
3.38816666666667,-0.287818851366193,-64.0374488988433
3.38833333333333,-0.287131814671167,-64.0556140516598
3.3885,-0.286462344724167,-64.0734675840724
3.38866666666667,-0.285809810891867,-64.0910190763195
3.38883333333333,-0.28517361183701,-64.1082777213099
3.389,-0.284553173851634,-64.1252523441036
3.38916666666667,-0.28394794932682,-64.1419514195481
3.38933333333333,-0.283357415297163,-64.1583830898609
3.3895,-0.282781072089604,-64.1745551803959
3.38966666666667,-0.282218442055364,-64.1904752152565
3.38983333333333,-0.281669068386207,-64.2061504312714
3.39,-0.28113251401554,-64.2215877916012
